
T0528 000:051 SEGGER J-Link V6.10i Log File (0001ms, 0030ms total)
T0528 000:051 DLL Compiled: Oct 25 2016 19:31:51 (0001ms, 0030ms total)
T0528 000:051 Logging started @ 2017-06-14 08:12 (0001ms, 0030ms total)
T0528 000:052 JLINK_SetWarnOutHandler(...) (0000ms, 0030ms total)
T0528 000:052 JLINK_OpenEx(...)
Firmware: J-Link ARM V8 compiled Nov 28 2014 13:44:46
Hardware: V8.00
S/N: 17935099
Feature(s): RDI,FlashDL,FlashBP,JFlashWEBSRV Webserver running on local port 19080 (0016ms, 0046ms total)
T0528 000:052   returns O.K. (0016ms, 0046ms total)
T0528 000:068 JLINK_SetErrorOutHandler(...) (0000ms, 0046ms total)
T0528 000:068 JLINK_ExecCommand("ProjectFile = "C:\Users\wangj\Desktop\G3118\ram_code\JLinkSettings.ini"", ...).   returns 0x00 (0096ms, 0142ms total)
T0528 000:165 JLINK_ExecCommand("Device = LPC4357:Cortex-M4", ...). Device "LPC4357_M4" selected.  returns 0x00 (0008ms, 0150ms total)
T0528 000:173 JLINK_ExecCommand("DisableConnectionTimeout", ...).   returns 0x01 (0000ms, 0150ms total)
T0528 000:173 JLINK_GetHardwareVersion()  returns 0x13880 (0000ms, 0150ms total)
T0528 000:173 JLINK_GetDLLVersion()  returns 61009 (0000ms, 0150ms total)
T0528 000:173 JLINK_GetFirmwareString(...) (0000ms, 0150ms total)
T0528 000:173 JLINK_GetDLLVersion()  returns 61009 (0000ms, 0150ms total)
T0528 000:173 JLINK_GetCompileDateTime() (0000ms, 0150ms total)
T0528 000:173 JLINK_GetFirmwareString(...) (0000ms, 0150ms total)
T0528 000:173 JLINK_GetHardwareVersion()  returns 0x13880 (0000ms, 0150ms total)
T0528 000:173 JLINK_TIF_Select(JLINKARM_TIF_SWD)  returns 0x00 (0003ms, 0153ms total)
T0528 000:176 JLINK_SetSpeed(5000) (0001ms, 0154ms total)
T0528 000:177 JLINK_GetId() >0x108 TIF>Found SWD-DP with ID 0x2BA01477 >0x0D TIF> >0x28 TIF> >0x0D TIF> >0x28 TIF> >0x0D TIF> >0x28 TIF> >0x0D TIF> >0x28 TIF> >0x0D TIF> >0x21 TIF> >0x0D TIF> >0x28 TIF> >0x0D TIF> >0x28 TIF> >0x0D TIF> >0x21 TIF> >0x0D TIF> >0x21 TIF> >0x0D TIF> >0x21 TIF>AP-IDR: 0x24770011, Type: AHB-AP >0x0D TIF> >0x28 TIF> >0x0D TIF> >0x28 TIF> >0x0D TIF> >0x28 TIF> >0x0D TIF> >0x21 TIF> >0x0D TIF> >0x21 TIF> >0x0D TIF> >0x28 TIF> >0x0D TIF> >0x21 TIF> >0x0D TIF> >0x21 TIF>
Found Cortex-M4 r0p1, Little endian. -- CPU_ReadMem(4 bytes @ 0xE000EDF0) -- CPU_WriteMem(4 bytes @ 0xE000EDF0) -- CPU_ReadMem(4 bytes @ 0xE0002000)FPUnit: 6 code (BP) slots and 2 literal slots -- CPU_ReadMem(4 bytes @ 0xE000EDFC) -- CPU_WriteMem(4 bytes @ 0xE000EDFC) -- CPU_ReadMem(4 bytes @ 0xE0001000) -- CPU_WriteMem(4 bytes @ 0xE0001000) -- CPU_ReadMem(4 bytes @ 0xE000ED88) -- CPU_WriteMem(4 bytes @ 0xE000ED88) -- CPU_ReadMem(4 bytes @ 0xE000ED88) -- CPU_WriteMem(4 bytes @ 0xE000ED88)
CoreSight components:ROMTbl 0 @ E00FF000 -- CPU_ReadMem(16 bytes @ 0xE00FF000) -- CPU_ReadMem(16 bytes @ 0xE000EFF0) -- CPU_ReadMem(16 bytes @ 0xE000EFE0)ROMTbl 0 [0]: FFF0F000, CID: B105E00D, PID: 000BB00C SCS -- CPU_ReadMem(16 bytes @ 0xE0001FF0) -- CPU_ReadMem(16 bytes @ 0xE0001FE0)ROMTbl 0 [1]: FFF02000, CID: B105E00D, PID: 003BB002 DWT -- CPU_ReadMem(16 bytes @ 0xE0002FF0) -- CPU_ReadMem(16 bytes @ 0xE0002FE0)ROMTbl 0 [2]: FFF03000, CID: B105E00D, PID: 002BB003 FPB
 -- CPU_ReadMem(16 bytes @ 0xE0000FF0) -- CPU_ReadMem(16 bytes @ 0xE0000FE0)ROMTbl 0 [3]: FFF01000, CID: B105E00D, PID: 003BB001 ITM -- CPU_ReadMem(16 bytes @ 0xE00FF010) -- CPU_ReadMem(16 bytes @ 0xE0040FF0) -- CPU_ReadMem(16 bytes @ 0xE0040FE0)ROMTbl 0 [4]: FFF41000, CID: B105900D, PID: 000BB9A1 TPIU -- CPU_ReadMem(16 bytes @ 0xE0041FF0) -- CPU_ReadMem(16 bytes @ 0xE0041FE0)ROMTbl 0 [5]: FFF42000, CID: B105900D, PID: 000BB925 ETM >0x0D TIF> >0x21 TIF>  returns 0x2BA01477 (0059ms, 0213ms total)
T0528 000:236 JLINK_GetDLLVersion()  returns 61009 (0000ms, 0213ms total)
T0528 000:236 JLINK_CORE_GetFound()  returns 0xE0000FF (0000ms, 0213ms total)
T0528 000:236 JLINK_GetDebugInfo(0x100) -- Value=0xE00FF000  returns 0x00 (0000ms, 0213ms total)
T0528 000:236 JLINK_GetDebugInfo(0x100) -- Value=0xE00FF000  returns 0x00 (0000ms, 0213ms total)
T0528 000:236 JLINK_GetDebugInfo(0x101) -- Value=0xE0041000  returns 0x00 (0000ms, 0213ms total)
T0528 000:236 JLINK_GetDebugInfo(0x102) -- Value=0x00000000  returns 0x00 (0000ms, 0213ms total)
T0528 000:236 JLINK_GetDebugInfo(0x103) -- Value=0xE0040000  returns 0x00 (0001ms, 0214ms total)
T0528 000:237 JLINK_GetDebugInfo(0x104) -- Value=0xE0000000  returns 0x00 (0000ms, 0214ms total)
T0528 000:237 JLINK_GetDebugInfo(0x105) -- Value=0xE0001000  returns 0x00 (0000ms, 0214ms total)
T0528 000:237 JLINK_GetDebugInfo(0x106) -- Value=0xE0002000  returns 0x00 (0000ms, 0214ms total)
T0528 000:237 JLINK_GetDebugInfo(0x107) -- Value=0xE000E000  returns 0x00 (0000ms, 0214ms total)
T0528 000:237 JLINK_GetDebugInfo(0x10C) -- Value=0xE000EDF0  returns 0x00 (0000ms, 0214ms total)
T0528 000:237 JLINK_ReadMemU32(0xE000EF40, 0x0001 Items, ...) -- CPU is running -- CPU_ReadMem(4 bytes @ 0xE000EF40) - Data: 21 00 11 10  returns 0x01 (0001ms, 0215ms total)
T0528 000:238 JLINK_ReadMemU32(0xE000EF44, 0x0001 Items, ...) -- CPU is running -- CPU_ReadMem(4 bytes @ 0xE000EF44) - Data: 11 00 00 11  returns 0x01 (0001ms, 0216ms total)
T0528 000:239 JLINK_ReadMemU32(0xE000ED00, 0x0001 Items, ...) -- CPU is running -- CPU_ReadMem(4 bytes @ 0xE000ED00) - Data: 41 C2 0F 41  returns 0x01 (0002ms, 0218ms total)
T0528 000:241 JLINK_SetResetType(JLINKARM_RESET_TYPE_NORMAL)  returns JLINKARM_RESET_TYPE_NORMAL (0000ms, 0218ms total)
T0528 000:241 JLINK_Reset()LPC18xx/43xx reset: Halting CPU before performing reset...LPC18xx/43xx reset: Halted CPU before reset. -- CPU_ReadMem(64 bytes @ 0x10000000) -- CPU_ReadMem(64 bytes @ 0x10080000) -- CPU_ReadMem(4096 bytes @ 0x10089000) -- CPU_WriteMem(4 bytes @ 0x40043100) -- CPU_WriteMem(4 bytes @ 0x4004312C) -- CPU_ReadMem(4 bytes @ 0xE000EDFC) -- CPU_ReadMem(4 bytes @ 0xE0001020) -- CPU_ReadMem(4 bytes @ 0xE0001024) -- CPU_ReadMem(4 bytes @ 0xE0001028) -- CPU_WriteMem(4 bytes @ 0xE0001020)
 -- CPU_WriteMem(4 bytes @ 0xE0001024) -- CPU_WriteMem(4 bytes @ 0xE0001028) -- CPU_ReadMem(8192 bytes @ 0x10400000)Unknown LPC18xx/43xx bootloader variant. Halting after reset may fail. -- CPU_ReadMem(4 bytes @ 0xE000EDFC) -- CPU_WriteMem(4 bytes @ 0xE000ED0C) -- CPU_WriteMem(4 bytes @ 0xE0001020) -- CPU_WriteMem(4 bytes @ 0xE0001024) -- CPU_WriteMem(4 bytes @ 0xE0001028) -- CPU_WriteMem(64 bytes @ 0x10000000) -- CPU_WriteMem(64 bytes @ 0x10080000) -- CPU_WriteMem(4096 bytes @ 0x10089000)
 -- CPU_ReadMem(4 bytes @ 0x00000000) -- CPU_WriteMem(4 bytes @ 0xE000EDF8) -- CPU_WriteMem(4 bytes @ 0xE000EDF4) -- CPU_ReadMem(4 bytes @ 0x00000004) -- CPU_WriteMem(4 bytes @ 0xE000EDF8) -- CPU_WriteMem(4 bytes @ 0xE000EDF4) -- CPU_WriteMem(4 bytes @ 0xE0002000) -- CPU_ReadMem(4 bytes @ 0xE000EDFC) -- CPU_ReadMem(4 bytes @ 0xE0001000) (0266ms, 0484ms total)
T0528 000:507 JLINK_ReadReg(R15 (PC))  returns 0x7DE555E2 (0000ms, 0484ms total)
T0528 000:507 JLINK_ReadReg(XPSR)  returns 0x41000000 (0000ms, 0484ms total)
T0528 000:507 JLINK_Halt()  returns 0x00 (0001ms, 0485ms total)
T0528 000:508 JLINK_IsHalted()  returns TRUE (0000ms, 0485ms total)
T0528 000:508 JLINK_ReadMemU32(0xE000EDF0, 0x0001 Items, ...) -- CPU_ReadMem(4 bytes @ 0xE000EDF0) - Data: 03 00 03 00  returns 0x01 (0001ms, 0486ms total)
T0528 000:509 JLINK_WriteU32(0xE000EDF0, 0xA05F0003) -- CPU_WriteMem(4 bytes @ 0xE000EDF0)  returns 0x00 (0001ms, 0487ms total)
T0528 000:510 JLINK_WriteU32(0xE000EDFC, 0x01000000) -- CPU_WriteMem(4 bytes @ 0xE000EDFC)  returns 0x00 (0001ms, 0488ms total)
T0528 000:511 JLINK_GetHWStatus(...)  returns 0x00 (0001ms, 0489ms total)
T0528 000:513 JLINK_GetNumBPUnits(Type = 0xFFFFFF00)  returns 0x06 (0000ms, 0489ms total)
T0528 000:513 JLINK_GetNumBPUnits(Type = 0xF0)  returns 0x2000 (0000ms, 0489ms total)
T0528 000:513 JLINK_GetNumWPUnits()  returns 0x04 (0000ms, 0489ms total)
T0528 000:513 JLINK_GetSpeed()  returns 0xFA0 (0000ms, 0489ms total)
T0528 000:513 JLINK_ReadMemU32(0xE000E004, 0x0001 Items, ...) -- CPU_ReadMem(4 bytes @ 0xE000E004) - Data: 01 00 00 00  returns 0x01 (0001ms, 0490ms total)
T0528 000:514 JLINK_ReadMemU32(0xE000E004, 0x0001 Items, ...) -- CPU_ReadMem(4 bytes @ 0xE000E004) - Data: 01 00 00 00  returns 0x01 (0001ms, 0491ms total)
T0528 000:516 JLINK_WriteMem(0xE0001000, 0x001C Bytes, ...) - Data: 01 00 00 00 00 00 00 00 00 00 00 00 00 00 00 00 ... -- CPU_WriteMem(28 bytes @ 0xE0001000)  returns 0x1C (0002ms, 0493ms total)
T0528 000:518 JLINK_ReadMem (0xE0001000, 0x001C Bytes, ...) -- CPU_ReadMem(28 bytes @ 0xE0001000) - Data: 01 00 00 40 00 00 00 00 00 00 00 00 00 00 00 00 ...  returns 0x00 (0002ms, 0495ms total)
T0528 000:520 JLINK_ReadReg(R15 (PC))  returns 0x7DE555E2 (0000ms, 0495ms total)
T0528 000:520 JLINK_ReadReg(XPSR)  returns 0x41000000 (0000ms, 0495ms total)
T0528 000:549 JLINK_WriteMem(0x10001000, 0x0400 Bytes, ...) - Data: C8 1C 00 20 A1 13 00 10 A9 13 00 10 AB 13 00 10 ... -- CPU_WriteMem(1024 bytes @ 0x10001000)  returns 0x400 (0009ms, 0504ms total)
T0528 000:558 JLINK_WriteMem(0x10001400, 0x0400 Bytes, ...) - Data: 02 7C 24 BF B1 E8 18 50 A0 E8 18 50 44 BF 18 C9 ... -- CPU_WriteMem(1024 bytes @ 0x10001400)  returns 0x400 (0008ms, 0512ms total)
T0528 000:566 JLINK_WriteMem(0x10001800, 0x0400 Bytes, ...) - Data: AD F2 04 4D 06 46 0F 46 15 46 00 24 A0 46 DF F8 ... -- CPU_WriteMem(1024 bytes @ 0x10001800)  returns 0x400 (0007ms, 0519ms total)
T0528 000:573 JLINK_WriteMem(0x10001C00, 0x0400 Bytes, ...) - Data: AF F8 05 46 28 46 BD E8 F0 81 00 00 60 10 00 20 ... -- CPU_WriteMem(1024 bytes @ 0x10001C00)  returns 0x400 (0008ms, 0527ms total)
T0528 000:581 JLINK_ReadMem (0x10001000, 0x1000 Bytes, ...) -- CPU_ReadMem(4096 bytes @ 0x10001000) -- Updating C cache (4096 bytes @ 0x10001000) -- Read from C cache (4096 bytes @ 0x10001000) - Data: C8 1C 00 20 A1 13 00 10 A9 13 00 10 AB 13 00 10 ...  returns 0x00 (0029ms, 0556ms total)
T0528 000:611 JLINK_WriteMem(0x10002000, 0x0094 Bytes, ...) - Data: 03 00 07 00 4F F0 40 70 E1 EE 10 0A 70 47 00 00 ... -- CPU_WriteMem(148 bytes @ 0x10002000)  returns 0x94 (0002ms, 0558ms total)
T0528 000:613 JLINK_ReadMem (0x10002000, 0x0094 Bytes, ...) -- CPU_ReadMem(192 bytes @ 0x10002000) -- Updating C cache (192 bytes @ 0x10002000) -- Read from C cache (148 bytes @ 0x10002000) - Data: 03 00 07 00 4F F0 40 70 E1 EE 10 0A 70 47 00 00 ...  returns 0x00 (0003ms, 0561ms total)
T0528 000:670 JLINK_SetResetType(JLINKARM_RESET_TYPE_NORMAL)  returns JLINKARM_RESET_TYPE_NORMAL (0000ms, 0561ms total)
T0528 000:670 JLINK_Reset()LPC18xx/43xx reset: Halting CPU before performing reset...LPC18xx/43xx reset: Halted CPU before reset. -- CPU_ReadMem(64 bytes @ 0x10000000) -- CPU_ReadMem(64 bytes @ 0x10080000) -- CPU_ReadMem(4096 bytes @ 0x10089000) -- CPU_WriteMem(4 bytes @ 0x40043100) -- CPU_WriteMem(4 bytes @ 0x4004312C) -- CPU_ReadMem(4 bytes @ 0xE000EDFC) -- CPU_ReadMem(4 bytes @ 0xE0001020) -- CPU_ReadMem(4 bytes @ 0xE0001024) -- CPU_ReadMem(4 bytes @ 0xE0001028) -- CPU_WriteMem(4 bytes @ 0xE0001020)
 -- CPU_WriteMem(4 bytes @ 0xE0001024) -- CPU_WriteMem(4 bytes @ 0xE0001028) -- CPU_ReadMem(8192 bytes @ 0x10400000)Unknown LPC18xx/43xx bootloader variant. Halting after reset may fail. -- CPU_ReadMem(4 bytes @ 0xE000EDFC) -- CPU_WriteMem(4 bytes @ 0xE000ED0C) -- CPU_WriteMem(4 bytes @ 0xE0001020) -- CPU_WriteMem(4 bytes @ 0xE0001024) -- CPU_WriteMem(4 bytes @ 0xE0001028) -- CPU_WriteMem(64 bytes @ 0x10000000) -- CPU_WriteMem(64 bytes @ 0x10080000) -- CPU_WriteMem(4096 bytes @ 0x10089000)
 -- CPU_ReadMem(4 bytes @ 0x00000000) -- CPU_WriteMem(4 bytes @ 0xE000EDF8) -- CPU_WriteMem(4 bytes @ 0xE000EDF4) -- CPU_ReadMem(4 bytes @ 0x00000004) -- CPU_WriteMem(4 bytes @ 0xE000EDF8) -- CPU_WriteMem(4 bytes @ 0xE000EDF4) -- CPU_WriteMem(4 bytes @ 0xE0002000) -- CPU_ReadMem(4 bytes @ 0xE000EDFC) -- CPU_ReadMem(4 bytes @ 0xE0001000) (0266ms, 0827ms total)
T0528 000:936 JLINK_ReadReg(R15 (PC))  returns 0x7DE555E2 (0000ms, 0827ms total)
T0528 000:936 JLINK_ReadReg(XPSR)  returns 0x41000000 (0000ms, 0827ms total)
T0528 000:936 JLINK_ReadMem (0x7DE555E2, 0x0002 Bytes, ...) -- CPU_ReadMem(2 bytes @ 0x7DE555E2) - Data: AA AA  returns 0x01 (0002ms, 0829ms total)
T0528 000:939 JLINK_ReadMem (0x7DE555E4, 0x003C Bytes, ...) -- CPU_ReadMem(60 bytes @ 0x7DE555E4) - Data: AA AA AA AA AA AA AA AA AA AA AA AA AA AA AA AA ...  returns 0x01 (0002ms, 0831ms total)
T0528 000:941 JLINK_ReadMem (0x7DE555E4, 0x003C Bytes, ...) -- CPU_ReadMem(60 bytes @ 0x7DE555E4) - Data: AA AA AA AA AA AA AA AA AA AA AA AA AA AA AA AA ...  returns 0x01 (0002ms, 0833ms total)
T0528 000:943 JLINK_ReadMem (0x7DE555E4, 0x003C Bytes, ...) -- CPU_ReadMem(60 bytes @ 0x7DE555E4) - Data: AA AA AA AA AA AA AA AA AA AA AA AA AA AA AA AA ...  returns 0x01 (0002ms, 0835ms total)
T0528 000:945 JLINK_ReadMem (0x7DE555E6, 0x0002 Bytes, ...) -- CPU_ReadMem(2 bytes @ 0x7DE555E6) - Data: AA AA  returns 0x01 (0002ms, 0837ms total)
T0528 000:947 JLINK_ReadMem (0x7DE555E6, 0x0002 Bytes, ...) -- CPU_ReadMem(2 bytes @ 0x7DE555E6) - Data: AA AA  returns 0x01 (0001ms, 0838ms total)
T0528 000:948 JLINK_ReadMem (0x7DE555E6, 0x0002 Bytes, ...) -- CPU_ReadMem(2 bytes @ 0x7DE555E6) - Data: AA AA  returns 0x01 (0001ms, 0839ms total)
T0528 000:950 JLINK_ReadMem (0x7DE555E8, 0x003C Bytes, ...) -- CPU_ReadMem(60 bytes @ 0x7DE555E8) - Data: AA AA AA AA AA AA AA AA AA AA AA AA AA AA AA AA ...  returns 0x01 (0001ms, 0840ms total)
T0528 000:951 JLINK_ReadMem (0x7DE555E8, 0x003C Bytes, ...) -- CPU_ReadMem(60 bytes @ 0x7DE555E8) - Data: AA AA AA AA AA AA AA AA AA AA AA AA AA AA AA AA ...  returns 0x01 (0002ms, 0842ms total)
T0528 000:953 JLINK_ReadMem (0x7DE555E8, 0x003C Bytes, ...) -- CPU_ReadMem(60 bytes @ 0x7DE555E8) - Data: AA AA AA AA AA AA AA AA AA AA AA AA AA AA AA AA ...  returns 0x01 (0002ms, 0844ms total)
T0528 000:955 JLINK_ReadMem (0x7DE555EA, 0x0002 Bytes, ...) -- CPU_ReadMem(2 bytes @ 0x7DE555EA) - Data: AA AA  returns 0x01 (0001ms, 0845ms total)
T0528 000:956 JLINK_ReadMem (0x7DE555EA, 0x0002 Bytes, ...) -- CPU_ReadMem(2 bytes @ 0x7DE555EA) - Data: AA AA  returns 0x01 (0002ms, 0847ms total)
T0528 000:958 JLINK_ReadMem (0x7DE555EA, 0x0002 Bytes, ...) -- CPU_ReadMem(2 bytes @ 0x7DE555EA) - Data: AA AA  returns 0x01 (0001ms, 0848ms total)
T0528 000:959 JLINK_ReadMem (0x7DE555EC, 0x003C Bytes, ...) -- CPU_ReadMem(60 bytes @ 0x7DE555EC) - Data: AA AA AA AA AA AA AA AA AA AA AA AA AA AA AA AA ...  returns 0x01 (0002ms, 0850ms total)
T0528 000:961 JLINK_ReadMem (0x7DE555EC, 0x003C Bytes, ...) -- CPU_ReadMem(60 bytes @ 0x7DE555EC) - Data: AA AA AA AA AA AA AA AA AA AA AA AA AA AA AA AA ...  returns 0x01 (0002ms, 0852ms total)
T0528 000:963 JLINK_ReadMem (0x7DE555EC, 0x003C Bytes, ...) -- CPU_ReadMem(60 bytes @ 0x7DE555EC) - Data: AA AA AA AA AA AA AA AA AA AA AA AA AA AA AA AA ...  returns 0x01 (0002ms, 0854ms total)
T0528 000:965 JLINK_ReadMem (0x7DE555EE, 0x0002 Bytes, ...) -- CPU_ReadMem(2 bytes @ 0x7DE555EE) - Data: AA AA  returns 0x01 (0001ms, 0855ms total)
T0528 000:967 JLINK_ReadMem (0x7DE555EE, 0x0002 Bytes, ...) -- CPU_ReadMem(2 bytes @ 0x7DE555EE) - Data: AA AA  returns 0x01 (0001ms, 0856ms total)
T0528 000:968 JLINK_ReadMem (0x7DE555EE, 0x0002 Bytes, ...) -- CPU_ReadMem(2 bytes @ 0x7DE555EE) - Data: AA AA  returns 0x01 (0001ms, 0857ms total)
T0528 001:388 JLINK_ReadMem (0x10080400, 0x0100 Bytes, ...) -- CPU_ReadMem(256 bytes @ 0x10080400) - Data: 00 00 00 00 00 00 00 00 00 00 00 00 00 00 00 00 ...  returns 0x00 (0003ms, 0860ms total)
T0528 001:532 JLINK_ReadMem (0x7DE555E2, 0x0002 Bytes, ...) -- CPU_ReadMem(2 bytes @ 0x7DE555E2) - Data: AA AA  returns 0x01 (0002ms, 0862ms total)
T0528 001:534 JLINK_ReadMem (0x7DE555E4, 0x003C Bytes, ...) -- CPU_ReadMem(60 bytes @ 0x7DE555E4) - Data: AA AA AA AA AA AA AA AA AA AA AA AA AA AA AA AA ...  returns 0x01 (0001ms, 0863ms total)
T0528 001:535 JLINK_ReadMem (0x7DE555E4, 0x003C Bytes, ...) -- CPU_ReadMem(60 bytes @ 0x7DE555E4) - Data: AA AA AA AA AA AA AA AA AA AA AA AA AA AA AA AA ...  returns 0x01 (0001ms, 0864ms total)
T0528 001:536 JLINK_ReadMem (0x7DE555E4, 0x003C Bytes, ...) -- CPU_ReadMem(60 bytes @ 0x7DE555E4) - Data: AA AA AA AA AA AA AA AA AA AA AA AA AA AA AA AA ...  returns 0x01 (0001ms, 0865ms total)
T0528 001:537 JLINK_ReadMem (0x7DE555E6, 0x0002 Bytes, ...) -- CPU_ReadMem(2 bytes @ 0x7DE555E6) - Data: AA AA  returns 0x01 (0001ms, 0866ms total)
T0528 001:538 JLINK_ReadMem (0x7DE555E6, 0x0002 Bytes, ...) -- CPU_ReadMem(2 bytes @ 0x7DE555E6) - Data: AA AA  returns 0x01 (0002ms, 0868ms total)
T0528 001:540 JLINK_ReadMem (0x7DE555E6, 0x0002 Bytes, ...) -- CPU_ReadMem(2 bytes @ 0x7DE555E6) - Data: AA AA  returns 0x01 (0001ms, 0869ms total)
T0528 001:541 JLINK_ReadMem (0x7DE555E8, 0x003C Bytes, ...) -- CPU_ReadMem(60 bytes @ 0x7DE555E8) - Data: AA AA AA AA AA AA AA AA AA AA AA AA AA AA AA AA ...  returns 0x01 (0001ms, 0870ms total)
T0528 001:542 JLINK_ReadMem (0x7DE555E8, 0x003C Bytes, ...) -- CPU_ReadMem(60 bytes @ 0x7DE555E8) - Data: AA AA AA AA AA AA AA AA AA AA AA AA AA AA AA AA ...  returns 0x01 (0001ms, 0871ms total)
T0528 001:543 JLINK_ReadMem (0x7DE555E8, 0x003C Bytes, ...) -- CPU_ReadMem(60 bytes @ 0x7DE555E8) - Data: AA AA AA AA AA AA AA AA AA AA AA AA AA AA AA AA ...  returns 0x01 (0001ms, 0872ms total)
T0528 001:544 JLINK_ReadMem (0x7DE555EA, 0x0002 Bytes, ...) -- CPU_ReadMem(2 bytes @ 0x7DE555EA) - Data: AA AA  returns 0x01 (0001ms, 0873ms total)
T0528 001:545 JLINK_ReadMem (0x7DE555EA, 0x0002 Bytes, ...) -- CPU_ReadMem(2 bytes @ 0x7DE555EA) - Data: AA AA  returns 0x01 (0001ms, 0874ms total)
T0528 001:546 JLINK_ReadMem (0x7DE555EA, 0x0002 Bytes, ...) -- CPU_ReadMem(2 bytes @ 0x7DE555EA) - Data: AA AA  returns 0x01 (0001ms, 0875ms total)
T0528 001:547 JLINK_ReadMem (0x7DE555EC, 0x003C Bytes, ...) -- CPU_ReadMem(60 bytes @ 0x7DE555EC) - Data: AA AA AA AA AA AA AA AA AA AA AA AA AA AA AA AA ...  returns 0x01 (0002ms, 0877ms total)
T0528 001:549 JLINK_ReadMem (0x7DE555EC, 0x003C Bytes, ...) -- CPU_ReadMem(60 bytes @ 0x7DE555EC) - Data: AA AA AA AA AA AA AA AA AA AA AA AA AA AA AA AA ...  returns 0x01 (0001ms, 0878ms total)
T0528 001:550 JLINK_ReadMem (0x7DE555EC, 0x003C Bytes, ...) -- CPU_ReadMem(60 bytes @ 0x7DE555EC) - Data: AA AA AA AA AA AA AA AA AA AA AA AA AA AA AA AA ...  returns 0x01 (0001ms, 0879ms total)
T0528 001:551 JLINK_ReadMem (0x7DE555EE, 0x0002 Bytes, ...) -- CPU_ReadMem(2 bytes @ 0x7DE555EE) - Data: AA AA  returns 0x01 (0001ms, 0880ms total)
T0528 001:552 JLINK_ReadMem (0x7DE555EE, 0x0002 Bytes, ...) -- CPU_ReadMem(2 bytes @ 0x7DE555EE) - Data: AA AA  returns 0x01 (0001ms, 0881ms total)
T0528 001:553 JLINK_ReadMem (0x7DE555EE, 0x0002 Bytes, ...) -- CPU_ReadMem(2 bytes @ 0x7DE555EE) - Data: AA AA  returns 0x01 (0001ms, 0882ms total)
T0528 001:556 JLINK_ReadMem (0x7DE555E2, 0x0002 Bytes, ...) -- CPU_ReadMem(2 bytes @ 0x7DE555E2) - Data: AA AA  returns 0x01 (0001ms, 0883ms total)
T0528 001:557 JLINK_ReadMem (0x7DE555E4, 0x003C Bytes, ...) -- CPU_ReadMem(60 bytes @ 0x7DE555E4) - Data: AA AA AA AA AA AA AA AA AA AA AA AA AA AA AA AA ...  returns 0x01 (0002ms, 0885ms total)
T0528 001:559 JLINK_ReadMem (0x7DE555E4, 0x003C Bytes, ...) -- CPU_ReadMem(60 bytes @ 0x7DE555E4) - Data: AA AA AA AA AA AA AA AA AA AA AA AA AA AA AA AA ...  returns 0x01 (0001ms, 0886ms total)
T0528 001:560 JLINK_ReadMem (0x7DE555E4, 0x003C Bytes, ...) -- CPU_ReadMem(60 bytes @ 0x7DE555E4) - Data: AA AA AA AA AA AA AA AA AA AA AA AA AA AA AA AA ...  returns 0x01 (0001ms, 0887ms total)
T0528 001:561 JLINK_ReadMem (0x7DE555E6, 0x0002 Bytes, ...) -- CPU_ReadMem(2 bytes @ 0x7DE555E6) - Data: AA AA  returns 0x01 (0001ms, 0888ms total)
T0528 001:562 JLINK_ReadMem (0x7DE555E6, 0x0002 Bytes, ...) -- CPU_ReadMem(2 bytes @ 0x7DE555E6) - Data: AA AA  returns 0x01 (0001ms, 0889ms total)
T0528 001:563 JLINK_ReadMem (0x7DE555E6, 0x0002 Bytes, ...) -- CPU_ReadMem(2 bytes @ 0x7DE555E6) - Data: AA AA  returns 0x01 (0001ms, 0890ms total)
T0528 001:564 JLINK_ReadMem (0x7DE555E8, 0x003C Bytes, ...) -- CPU_ReadMem(60 bytes @ 0x7DE555E8) - Data: AA AA AA AA AA AA AA AA AA AA AA AA AA AA AA AA ...  returns 0x01 (0001ms, 0891ms total)
T0528 001:565 JLINK_ReadMem (0x7DE555E8, 0x003C Bytes, ...) -- CPU_ReadMem(60 bytes @ 0x7DE555E8) - Data: AA AA AA AA AA AA AA AA AA AA AA AA AA AA AA AA ...  returns 0x01 (0001ms, 0892ms total)
T0528 001:566 JLINK_ReadMem (0x7DE555E8, 0x003C Bytes, ...) -- CPU_ReadMem(60 bytes @ 0x7DE555E8) - Data: AA AA AA AA AA AA AA AA AA AA AA AA AA AA AA AA ...  returns 0x01 (0002ms, 0894ms total)
T0528 001:568 JLINK_ReadMem (0x7DE555EA, 0x0002 Bytes, ...) -- CPU_ReadMem(2 bytes @ 0x7DE555EA) - Data: AA AA  returns 0x01 (0001ms, 0895ms total)
T0528 001:569 JLINK_ReadMem (0x7DE555EA, 0x0002 Bytes, ...) -- CPU_ReadMem(2 bytes @ 0x7DE555EA) - Data: AA AA  returns 0x01 (0001ms, 0896ms total)
T0528 001:570 JLINK_ReadMem (0x7DE555EA, 0x0002 Bytes, ...) -- CPU_ReadMem(2 bytes @ 0x7DE555EA) - Data: AA AA  returns 0x01 (0001ms, 0897ms total)
T0528 001:571 JLINK_ReadMem (0x7DE555EC, 0x003C Bytes, ...) -- CPU_ReadMem(60 bytes @ 0x7DE555EC) - Data: AA AA AA AA AA AA AA AA AA AA AA AA AA AA AA AA ...  returns 0x01 (0001ms, 0898ms total)
T0528 001:572 JLINK_ReadMem (0x7DE555EC, 0x003C Bytes, ...) -- CPU_ReadMem(60 bytes @ 0x7DE555EC) - Data: AA AA AA AA AA AA AA AA AA AA AA AA AA AA AA AA ...  returns 0x01 (0001ms, 0899ms total)
T0528 001:573 JLINK_ReadMem (0x7DE555EC, 0x003C Bytes, ...) -- CPU_ReadMem(60 bytes @ 0x7DE555EC) - Data: AA AA AA AA AA AA AA AA AA AA AA AA AA AA AA AA ...  returns 0x01 (0001ms, 0900ms total)
T0528 001:574 JLINK_ReadMem (0x7DE555EE, 0x0002 Bytes, ...) -- CPU_ReadMem(2 bytes @ 0x7DE555EE) - Data: AA AA  returns 0x01 (0001ms, 0901ms total)
T0528 001:575 JLINK_ReadMem (0x7DE555EE, 0x0002 Bytes, ...) -- CPU_ReadMem(2 bytes @ 0x7DE555EE) - Data: AA AA  returns 0x01 (0001ms, 0902ms total)
T0528 001:576 JLINK_ReadMem (0x7DE555EE, 0x0002 Bytes, ...) -- CPU_ReadMem(2 bytes @ 0x7DE555EE) - Data: AA AA  returns 0x01 (0001ms, 0903ms total)
T0528 001:596 JLINK_ReadMem (0x7DE555E2, 0x0002 Bytes, ...) -- CPU_ReadMem(2 bytes @ 0x7DE555E2) - Data: AA AA  returns 0x01 (0002ms, 0905ms total)
T0528 001:598 JLINK_ReadMem (0x7DE555E4, 0x003C Bytes, ...) -- CPU_ReadMem(60 bytes @ 0x7DE555E4) - Data: AA AA AA AA AA AA AA AA AA AA AA AA AA AA AA AA ...  returns 0x01 (0002ms, 0907ms total)
T0528 001:601 JLINK_ReadMem (0x7DE555E4, 0x003C Bytes, ...) -- CPU_ReadMem(60 bytes @ 0x7DE555E4) - Data: AA AA AA AA AA AA AA AA AA AA AA AA AA AA AA AA ...  returns 0x01 (0002ms, 0910ms total)
T0528 001:603 JLINK_ReadMem (0x7DE555E4, 0x003C Bytes, ...) -- CPU_ReadMem(60 bytes @ 0x7DE555E4) - Data: AA AA AA AA AA AA AA AA AA AA AA AA AA AA AA AA ...  returns 0x01 (0001ms, 0911ms total)
T0528 001:605 JLINK_ReadMem (0x7DE555E6, 0x0002 Bytes, ...) -- CPU_ReadMem(2 bytes @ 0x7DE555E6) - Data: AA AA  returns 0x01 (0001ms, 0912ms total)
T0528 001:606 JLINK_ReadMem (0x7DE555E6, 0x0002 Bytes, ...) -- CPU_ReadMem(2 bytes @ 0x7DE555E6) - Data: AA AA  returns 0x01 (0002ms, 0914ms total)
T0528 001:608 JLINK_ReadMem (0x7DE555E6, 0x0002 Bytes, ...) -- CPU_ReadMem(2 bytes @ 0x7DE555E6) - Data: AA AA  returns 0x01 (0001ms, 0915ms total)
T0528 001:609 JLINK_ReadMem (0x7DE555E8, 0x003C Bytes, ...) -- CPU_ReadMem(60 bytes @ 0x7DE555E8) - Data: AA AA AA AA AA AA AA AA AA AA AA AA AA AA AA AA ...  returns 0x01 (0002ms, 0917ms total)
T0528 001:611 JLINK_ReadMem (0x7DE555E8, 0x003C Bytes, ...) -- CPU_ReadMem(60 bytes @ 0x7DE555E8) - Data: AA AA AA AA AA AA AA AA AA AA AA AA AA AA AA AA ...  returns 0x01 (0002ms, 0919ms total)
T0528 001:613 JLINK_ReadMem (0x7DE555E8, 0x003C Bytes, ...) -- CPU_ReadMem(60 bytes @ 0x7DE555E8) - Data: AA AA AA AA AA AA AA AA AA AA AA AA AA AA AA AA ...  returns 0x01 (0002ms, 0921ms total)
T0528 001:615 JLINK_ReadMem (0x7DE555EA, 0x0002 Bytes, ...) -- CPU_ReadMem(2 bytes @ 0x7DE555EA) - Data: AA AA  returns 0x01 (0002ms, 0923ms total)
T0528 001:617 JLINK_ReadMem (0x7DE555EA, 0x0002 Bytes, ...) -- CPU_ReadMem(2 bytes @ 0x7DE555EA) - Data: AA AA  returns 0x01 (0001ms, 0924ms total)
T0528 001:618 JLINK_ReadMem (0x7DE555EA, 0x0002 Bytes, ...) -- CPU_ReadMem(2 bytes @ 0x7DE555EA) - Data: AA AA  returns 0x01 (0002ms, 0926ms total)
T0528 001:643 JLINK_ReadMem (0x7DE555E2, 0x0002 Bytes, ...) -- CPU_ReadMem(2 bytes @ 0x7DE555E2) - Data: AA AA  returns 0x01 (0001ms, 0927ms total)
T0528 001:644 JLINK_ReadMem (0x7DE555E4, 0x003C Bytes, ...) -- CPU_ReadMem(60 bytes @ 0x7DE555E4) - Data: AA AA AA AA AA AA AA AA AA AA AA AA AA AA AA AA ...  returns 0x01 (0001ms, 0928ms total)
T0528 001:645 JLINK_ReadMem (0x7DE555E4, 0x003C Bytes, ...) -- CPU_ReadMem(60 bytes @ 0x7DE555E4) - Data: AA AA AA AA AA AA AA AA AA AA AA AA AA AA AA AA ...  returns 0x01 (0001ms, 0929ms total)
T0528 001:646 JLINK_ReadMem (0x7DE555E4, 0x003C Bytes, ...) -- CPU_ReadMem(60 bytes @ 0x7DE555E4) - Data: AA AA AA AA AA AA AA AA AA AA AA AA AA AA AA AA ...  returns 0x01 (0002ms, 0931ms total)
T0528 001:648 JLINK_ReadMem (0x7DE555E6, 0x0002 Bytes, ...) -- CPU_ReadMem(2 bytes @ 0x7DE555E6) - Data: AA AA  returns 0x01 (0001ms, 0932ms total)
T0528 001:649 JLINK_ReadMem (0x7DE555E6, 0x0002 Bytes, ...) -- CPU_ReadMem(2 bytes @ 0x7DE555E6) - Data: AA AA  returns 0x01 (0001ms, 0933ms total)
T0528 001:650 JLINK_ReadMem (0x7DE555E6, 0x0002 Bytes, ...) -- CPU_ReadMem(2 bytes @ 0x7DE555E6) - Data: AA AA  returns 0x01 (0001ms, 0934ms total)
T0528 001:651 JLINK_ReadMem (0x7DE555E8, 0x003C Bytes, ...) -- CPU_ReadMem(60 bytes @ 0x7DE555E8) - Data: AA AA AA AA AA AA AA AA AA AA AA AA AA AA AA AA ...  returns 0x01 (0001ms, 0935ms total)
T0528 001:652 JLINK_ReadMem (0x7DE555E8, 0x003C Bytes, ...) -- CPU_ReadMem(60 bytes @ 0x7DE555E8) - Data: AA AA AA AA AA AA AA AA AA AA AA AA AA AA AA AA ...  returns 0x01 (0001ms, 0936ms total)
T0528 001:653 JLINK_ReadMem (0x7DE555E8, 0x003C Bytes, ...) -- CPU_ReadMem(60 bytes @ 0x7DE555E8) - Data: AA AA AA AA AA AA AA AA AA AA AA AA AA AA AA AA ...  returns 0x01 (0002ms, 0938ms total)
T0528 001:655 JLINK_ReadMem (0x7DE555EA, 0x0002 Bytes, ...) -- CPU_ReadMem(2 bytes @ 0x7DE555EA) - Data: AA AA  returns 0x01 (0001ms, 0939ms total)
T0528 001:656 JLINK_ReadMem (0x7DE555EA, 0x0002 Bytes, ...) -- CPU_ReadMem(2 bytes @ 0x7DE555EA) - Data: AA AA  returns 0x01 (0001ms, 0940ms total)
T0528 001:657 JLINK_ReadMem (0x7DE555EA, 0x0002 Bytes, ...) -- CPU_ReadMem(2 bytes @ 0x7DE555EA) - Data: AA AA  returns 0x01 (0001ms, 0941ms total)
T0528 001:658 JLINK_ReadMem (0x7DE555EC, 0x003C Bytes, ...) -- CPU_ReadMem(60 bytes @ 0x7DE555EC) - Data: AA AA AA AA AA AA AA AA AA AA AA AA AA AA AA AA ...  returns 0x01 (0001ms, 0942ms total)
T0528 001:659 JLINK_ReadMem (0x7DE555EC, 0x003C Bytes, ...) -- CPU_ReadMem(60 bytes @ 0x7DE555EC) - Data: AA AA AA AA AA AA AA AA AA AA AA AA AA AA AA AA ...  returns 0x01 (0001ms, 0943ms total)
T0528 001:660 JLINK_ReadMem (0x7DE555EC, 0x003C Bytes, ...) -- CPU_ReadMem(60 bytes @ 0x7DE555EC) - Data: AA AA AA AA AA AA AA AA AA AA AA AA AA AA AA AA ...  returns 0x01 (0001ms, 0944ms total)
T0528 001:661 JLINK_ReadMem (0x7DE555EE, 0x0002 Bytes, ...) -- CPU_ReadMem(2 bytes @ 0x7DE555EE) - Data: AA AA  returns 0x01 (0001ms, 0945ms total)
T0528 001:662 JLINK_ReadMem (0x7DE555EE, 0x0002 Bytes, ...) -- CPU_ReadMem(2 bytes @ 0x7DE555EE) - Data: AA AA  returns 0x01 (0001ms, 0946ms total)
T0528 001:663 JLINK_ReadMem (0x7DE555EE, 0x0002 Bytes, ...) -- CPU_ReadMem(2 bytes @ 0x7DE555EE) - Data: AA AA  returns 0x01 (0001ms, 0947ms total)
T0528 001:808 JLINK_WriteMem(0x10080000, 0x0004 Bytes, ...) - Data: 00 1F 00 00 -- CPU_WriteMem(4 bytes @ 0x10080000)  returns 0x04 (0001ms, 0948ms total)
T0528 001:809 JLINK_WriteMem(0x10080004, 0x0004 Bytes, ...) - Data: D5 00 00 00 -- CPU_WriteMem(4 bytes @ 0x10080004)  returns 0x04 (0001ms, 0949ms total)
T0528 001:810 JLINK_WriteMem(0x100800D4, 0x0004 Bytes, ...) - Data: FE E7 FE E7 -- CPU_WriteMem(4 bytes @ 0x100800D4)  returns 0x04 (0001ms, 0950ms total)
T0528 001:811 JLINK_WriteMem(0x40043404, 0x0004 Bytes, ...) - Data: 00 00 08 10 -- CPU_WriteMem(4 bytes @ 0x40043404)  returns 0x04 (0001ms, 0951ms total)
T0528 001:813 JLINK_ReadMem (0x40053154, 0x0004 Bytes, ...) -- CPU_ReadMem(4 bytes @ 0x40053154) - Data: FF FF FF FE  returns 0x00 (0001ms, 0952ms total)
T0528 001:814 JLINK_WriteMem(0x40053104, 0x0004 Bytes, ...) - Data: 00 00 00 00 -- CPU_WriteMem(4 bytes @ 0x40053104)  returns 0x04 (0001ms, 0953ms total)
T0528 001:821 JLINK_WriteMem(0x10001000, 0x0400 Bytes, ...) - Data: C8 1C 00 20 A1 13 00 10 A9 13 00 10 AB 13 00 10 ... -- CPU_WriteMem(1024 bytes @ 0x10001000)  returns 0x400 (0007ms, 0960ms total)
T0528 001:828 JLINK_WriteMem(0x10001400, 0x0400 Bytes, ...) - Data: 02 7C 24 BF B1 E8 18 50 A0 E8 18 50 44 BF 18 C9 ... -- CPU_WriteMem(1024 bytes @ 0x10001400)  returns 0x400 (0007ms, 0967ms total)
T0528 001:835 JLINK_WriteMem(0x10001800, 0x0400 Bytes, ...) - Data: AD F2 04 4D 06 46 0F 46 15 46 00 24 A0 46 DF F8 ... -- CPU_WriteMem(1024 bytes @ 0x10001800)  returns 0x400 (0007ms, 0974ms total)
T0528 001:843 JLINK_WriteMem(0x10001C00, 0x0400 Bytes, ...) - Data: AF F8 05 46 28 46 BD E8 F0 81 00 00 60 10 00 20 ... -- CPU_WriteMem(1024 bytes @ 0x10001C00)  returns 0x400 (0007ms, 0981ms total)
T0528 001:850 JLINK_ReadMem (0x10001000, 0x1000 Bytes, ...) -- CPU_ReadMem(4096 bytes @ 0x10001000) -- Updating C cache (4096 bytes @ 0x10001000) -- Read from C cache (4096 bytes @ 0x10001000) - Data: C8 1C 00 20 A1 13 00 10 A9 13 00 10 AB 13 00 10 ...  returns 0x00 (0029ms, 1010ms total)
T0528 001:881 JLINK_WriteMem(0x10002000, 0x0094 Bytes, ...) - Data: 03 00 07 00 4F F0 40 70 E1 EE 10 0A 70 47 00 00 ... -- CPU_WriteMem(148 bytes @ 0x10002000)  returns 0x94 (0003ms, 1013ms total)
T0528 001:884 JLINK_ReadMem (0x10002000, 0x0094 Bytes, ...) -- CPU_ReadMem(192 bytes @ 0x10002000) -- Updating C cache (192 bytes @ 0x10002000) -- Read from C cache (148 bytes @ 0x10002000) - Data: 03 00 07 00 4F F0 40 70 E1 EE 10 0A 70 47 00 00 ...  returns 0x00 (0003ms, 1016ms total)
T0528 001:940 JLINK_WriteReg(R13 (SP), 0x20001CC8)  returns 0x00 (0000ms, 1016ms total)
T0528 001:940 JLINK_ReadReg(R0)  returns 0x1A000000 (0001ms, 1017ms total)
T0528 001:941 JLINK_ReadReg(R1)  returns 0x1A000000 (0001ms, 1018ms total)
T0528 001:942 JLINK_ReadReg(R2)  returns 0x400F1FC0 (0000ms, 1018ms total)
T0528 001:942 JLINK_ReadReg(R3)  returns 0x12345678 (0000ms, 1018ms total)
T0528 001:942 JLINK_ReadReg(R4)  returns 0x40045000 (0000ms, 1018ms total)
T0528 001:942 JLINK_ReadReg(R5)  returns 0x1008000C (0000ms, 1018ms total)
T0528 001:942 JLINK_ReadReg(R6)  returns 0x00000000 (0000ms, 1018ms total)
T0528 001:942 JLINK_ReadReg(R7)  returns 0x00000000 (0000ms, 1018ms total)
T0528 001:942 JLINK_ReadReg(R8)  returns 0x00000000 (0000ms, 1018ms total)
T0528 001:942 JLINK_ReadReg(R9)  returns 0x00000000 (0000ms, 1018ms total)
T0528 001:942 JLINK_ReadReg(R10)  returns 0x00000000 (0000ms, 1018ms total)
T0528 001:942 JLINK_ReadReg(R11)  returns 0x00000000 (0000ms, 1018ms total)
T0528 001:942 JLINK_ReadReg(R12)  returns 0x00000000 (0000ms, 1018ms total)
T0528 001:942 JLINK_ReadReg(R13 (SP))  returns 0x20001CC8 (0000ms, 1018ms total)
T0528 001:942 JLINK_ReadReg(R14)  returns 0x10405B25 (0001ms, 1019ms total)
T0528 001:943 JLINK_ReadReg(R15 (PC))  returns 0x7DE555E2 (0000ms, 1019ms total)
T0528 001:943 JLINK_ReadReg(XPSR)  returns 0x41000000 (0000ms, 1019ms total)
T0528 001:943 JLINK_ReadReg(MSP)  returns 0x20001CC8 (0000ms, 1019ms total)
T0528 001:943 JLINK_ReadReg(PSP)  returns 0x00000000 (0000ms, 1019ms total)
T0528 001:943 JLINK_ReadReg(CFBP)  returns 0x00000000 (0000ms, 1019ms total)
T0528 001:943 JLINK_ReadReg(FPSCR)  returns 0x00000000 (0006ms, 1025ms total)
T0528 001:949 JLINK_ReadReg(FPS0)  returns 0x00000000 (0000ms, 1025ms total)
T0528 001:949 JLINK_ReadReg(FPS1)  returns 0x00000000 (0000ms, 1025ms total)
T0528 001:949 JLINK_ReadReg(FPS2)  returns 0x00000000 (0000ms, 1025ms total)
T0528 001:949 JLINK_ReadReg(FPS3)  returns 0x00000000 (0000ms, 1025ms total)
T0528 001:950 JLINK_ReadReg(FPS4)  returns 0x00000000 (0000ms, 1025ms total)
T0528 001:950 JLINK_ReadReg(FPS5)  returns 0x00000000 (0000ms, 1025ms total)
T0528 001:950 JLINK_ReadReg(FPS6)  returns 0x00000000 (0000ms, 1025ms total)
T0528 001:950 JLINK_ReadReg(FPS7)  returns 0x00000000 (0000ms, 1025ms total)
T0528 001:950 JLINK_ReadReg(FPS8)  returns 0x00000000 (0000ms, 1025ms total)
T0528 001:950 JLINK_ReadReg(FPS9)  returns 0x00000000 (0000ms, 1025ms total)
T0528 001:950 JLINK_ReadReg(FPS10)  returns 0x00000000 (0000ms, 1025ms total)
T0528 001:950 JLINK_ReadReg(FPS11)  returns 0x00000000 (0000ms, 1025ms total)
T0528 001:950 JLINK_ReadReg(FPS12)  returns 0x00000000 (0000ms, 1025ms total)
T0528 001:950 JLINK_ReadReg(FPS13)  returns 0x00000000 (0000ms, 1025ms total)
T0528 001:950 JLINK_ReadReg(FPS14)  returns 0x00000000 (0001ms, 1026ms total)
T0528 001:951 JLINK_ReadReg(FPS15)  returns 0x00000000 (0000ms, 1026ms total)
T0528 001:951 JLINK_ReadReg(FPS16)  returns 0x00000000 (0000ms, 1026ms total)
T0528 001:951 JLINK_ReadReg(FPS17)  returns 0x00000000 (0000ms, 1026ms total)
T0528 001:951 JLINK_ReadReg(FPS18)  returns 0x00000000 (0000ms, 1026ms total)
T0528 001:951 JLINK_ReadReg(FPS19)  returns 0x00000000 (0000ms, 1026ms total)
T0528 001:951 JLINK_ReadReg(FPS20)  returns 0x00000000 (0000ms, 1026ms total)
T0528 001:951 JLINK_ReadReg(FPS21)  returns 0x00000000 (0000ms, 1026ms total)
T0528 001:951 JLINK_ReadReg(FPS22)  returns 0x00000000 (0000ms, 1026ms total)
T0528 001:951 JLINK_ReadReg(FPS23)  returns 0x00000000 (0000ms, 1026ms total)
T0528 001:951 JLINK_ReadReg(FPS24)  returns 0x00000000 (0000ms, 1026ms total)
T0528 001:951 JLINK_ReadReg(FPS25)  returns 0x00000000 (0000ms, 1026ms total)
T0528 001:951 JLINK_ReadReg(FPS26)  returns 0x00000000 (0000ms, 1026ms total)
T0528 001:951 JLINK_ReadReg(FPS27)  returns 0x00000000 (0000ms, 1026ms total)
T0528 001:951 JLINK_ReadReg(FPS28)  returns 0x00000000 (0000ms, 1026ms total)
T0528 001:951 JLINK_ReadReg(FPS29)  returns 0x00000000 (0001ms, 1027ms total)
T0528 001:952 JLINK_ReadReg(FPS30)  returns 0x00000000 (0000ms, 1027ms total)
T0528 001:952 JLINK_ReadReg(FPS31)  returns 0x00000000 (0000ms, 1027ms total)
T0528 001:952 JLINK_WriteReg(R15 (PC), 0x100013A0)  returns 0x00 (0000ms, 1027ms total)
T0528 001:952 JLINK_ReadReg(R0)  returns 0x1A000000 (0000ms, 1027ms total)
T0528 001:952 JLINK_ReadReg(R1)  returns 0x1A000000 (0000ms, 1027ms total)
T0528 001:952 JLINK_ReadReg(R2)  returns 0x400F1FC0 (0000ms, 1027ms total)
T0528 001:952 JLINK_ReadReg(R3)  returns 0x12345678 (0000ms, 1027ms total)
T0528 001:952 JLINK_ReadReg(R4)  returns 0x40045000 (0000ms, 1027ms total)
T0528 001:952 JLINK_ReadReg(R5)  returns 0x1008000C (0000ms, 1027ms total)
T0528 001:952 JLINK_ReadReg(R6)  returns 0x00000000 (0000ms, 1027ms total)
T0528 001:952 JLINK_ReadReg(R7)  returns 0x00000000 (0000ms, 1027ms total)
T0528 001:952 JLINK_ReadReg(R8)  returns 0x00000000 (0000ms, 1027ms total)
T0528 001:952 JLINK_ReadReg(R9)  returns 0x00000000 (0000ms, 1027ms total)
T0528 001:952 JLINK_ReadReg(R10)  returns 0x00000000 (0000ms, 1027ms total)
T0528 001:952 JLINK_ReadReg(R11)  returns 0x00000000 (0001ms, 1028ms total)
T0528 001:953 JLINK_ReadReg(R12)  returns 0x00000000 (0000ms, 1028ms total)
T0528 001:953 JLINK_ReadReg(R13 (SP))  returns 0x20001CC8 (0000ms, 1028ms total)
T0528 001:953 JLINK_ReadReg(R14)  returns 0x10405B25 (0000ms, 1028ms total)
T0528 001:953 JLINK_ReadReg(R15 (PC))  returns 0x100013A0 (0000ms, 1028ms total)
T0528 001:953 JLINK_ReadReg(XPSR)  returns 0x41000000 (0000ms, 1028ms total)
T0528 001:953 JLINK_ReadReg(MSP)  returns 0x20001CC8 (0000ms, 1028ms total)
T0528 001:953 JLINK_ReadReg(PSP)  returns 0x00000000 (0000ms, 1028ms total)
T0528 001:953 JLINK_ReadReg(CFBP)  returns 0x00000000 (0000ms, 1028ms total)
T0528 001:953 JLINK_ReadReg(FPSCR)  returns 0x00000000 (0000ms, 1028ms total)
T0528 001:953 JLINK_ReadReg(FPS0)  returns 0x00000000 (0000ms, 1028ms total)
T0528 001:953 JLINK_ReadReg(FPS1)  returns 0x00000000 (0000ms, 1028ms total)
T0528 001:953 JLINK_ReadReg(FPS2)  returns 0x00000000 (0000ms, 1028ms total)
T0528 001:953 JLINK_ReadReg(FPS3)  returns 0x00000000 (0000ms, 1028ms total)
T0528 001:954 JLINK_ReadReg(FPS4)  returns 0x00000000 (0000ms, 1028ms total)
T0528 001:954 JLINK_ReadReg(FPS5)  returns 0x00000000 (0000ms, 1028ms total)
T0528 001:954 JLINK_ReadReg(FPS6)  returns 0x00000000 (0000ms, 1028ms total)
T0528 001:954 JLINK_ReadReg(FPS7)  returns 0x00000000 (0000ms, 1028ms total)
T0528 001:954 JLINK_ReadReg(FPS8)  returns 0x00000000 (0000ms, 1028ms total)
T0528 001:954 JLINK_ReadReg(FPS9)  returns 0x00000000 (0000ms, 1028ms total)
T0528 001:954 JLINK_ReadReg(FPS10)  returns 0x00000000 (0000ms, 1028ms total)
T0528 001:954 JLINK_ReadReg(FPS11)  returns 0x00000000 (0000ms, 1028ms total)
T0528 001:954 JLINK_ReadReg(FPS12)  returns 0x00000000 (0000ms, 1028ms total)
T0528 001:954 JLINK_ReadReg(FPS13)  returns 0x00000000 (0000ms, 1028ms total)
T0528 001:954 JLINK_ReadReg(FPS14)  returns 0x00000000 (0000ms, 1028ms total)
T0528 001:954 JLINK_ReadReg(FPS15)  returns 0x00000000 (0001ms, 1029ms total)
T0528 001:955 JLINK_ReadReg(FPS16)  returns 0x00000000 (0000ms, 1029ms total)
T0528 001:955 JLINK_ReadReg(FPS17)  returns 0x00000000 (0000ms, 1029ms total)
T0528 001:955 JLINK_ReadReg(FPS18)  returns 0x00000000 (0000ms, 1029ms total)
T0528 001:955 JLINK_ReadReg(FPS19)  returns 0x00000000 (0000ms, 1029ms total)
T0528 001:955 JLINK_ReadReg(FPS20)  returns 0x00000000 (0000ms, 1029ms total)
T0528 001:955 JLINK_ReadReg(FPS21)  returns 0x00000000 (0000ms, 1029ms total)
T0528 001:955 JLINK_ReadReg(FPS22)  returns 0x00000000 (0000ms, 1029ms total)
T0528 001:955 JLINK_ReadReg(FPS23)  returns 0x00000000 (0000ms, 1029ms total)
T0528 001:955 JLINK_ReadReg(FPS24)  returns 0x00000000 (0000ms, 1029ms total)
T0528 001:955 JLINK_ReadReg(FPS25)  returns 0x00000000 (0000ms, 1029ms total)
T0528 001:955 JLINK_ReadReg(FPS26)  returns 0x00000000 (0000ms, 1029ms total)
T0528 001:955 JLINK_ReadReg(FPS27)  returns 0x00000000 (0000ms, 1029ms total)
T0528 001:955 JLINK_ReadReg(FPS28)  returns 0x00000000 (0000ms, 1029ms total)
T0528 001:955 JLINK_ReadReg(FPS29)  returns 0x00000000 (0001ms, 1030ms total)
T0528 001:956 JLINK_ReadReg(FPS30)  returns 0x00000000 (0000ms, 1030ms total)
T0528 001:956 JLINK_ReadReg(FPS31)  returns 0x00000000 (0000ms, 1030ms total)
T0528 001:956 JLINK_WriteReg(XPSR, 0x01000000)  returns 0x00 (0000ms, 1030ms total)
T0528 001:956 JLINK_ReadReg(R0)  returns 0x1A000000 (0000ms, 1030ms total)
T0528 001:956 JLINK_ReadReg(R1)  returns 0x1A000000 (0000ms, 1030ms total)
T0528 001:956 JLINK_ReadReg(R2)  returns 0x400F1FC0 (0000ms, 1030ms total)
T0528 001:956 JLINK_ReadReg(R3)  returns 0x12345678 (0000ms, 1030ms total)
T0528 001:956 JLINK_ReadReg(R4)  returns 0x40045000 (0000ms, 1030ms total)
T0528 001:956 JLINK_ReadReg(R5)  returns 0x1008000C (0000ms, 1030ms total)
T0528 001:956 JLINK_ReadReg(R6)  returns 0x00000000 (0000ms, 1030ms total)
T0528 001:956 JLINK_ReadReg(R7)  returns 0x00000000 (0000ms, 1030ms total)
T0528 001:956 JLINK_ReadReg(R8)  returns 0x00000000 (0000ms, 1030ms total)
T0528 001:956 JLINK_ReadReg(R9)  returns 0x00000000 (0000ms, 1030ms total)
T0528 001:956 JLINK_ReadReg(R10)  returns 0x00000000 (0000ms, 1030ms total)
T0528 001:956 JLINK_ReadReg(R11)  returns 0x00000000 (0001ms, 1031ms total)
T0528 001:957 JLINK_ReadReg(R12)  returns 0x00000000 (0000ms, 1031ms total)
T0528 001:957 JLINK_ReadReg(R13 (SP))  returns 0x20001CC8 (0000ms, 1031ms total)
T0528 001:957 JLINK_ReadReg(R14)  returns 0x10405B25 (0000ms, 1031ms total)
T0528 001:957 JLINK_ReadReg(R15 (PC))  returns 0x100013A0 (0000ms, 1031ms total)
T0528 001:957 JLINK_ReadReg(XPSR)  returns 0x01000000 (0000ms, 1031ms total)
T0528 001:957 JLINK_ReadReg(MSP)  returns 0x20001CC8 (0000ms, 1031ms total)
T0528 001:957 JLINK_ReadReg(PSP)  returns 0x00000000 (0000ms, 1031ms total)
T0528 001:957 JLINK_ReadReg(CFBP)  returns 0x00000000 (0000ms, 1031ms total)
T0528 001:957 JLINK_ReadReg(FPSCR)  returns 0x00000000 (0000ms, 1031ms total)
T0528 001:957 JLINK_ReadReg(FPS0)  returns 0x00000000 (0000ms, 1031ms total)
T0528 001:957 JLINK_ReadReg(FPS1)  returns 0x00000000 (0000ms, 1031ms total)
T0528 001:957 JLINK_ReadReg(FPS2)  returns 0x00000000 (0000ms, 1031ms total)
T0528 001:957 JLINK_ReadReg(FPS3)  returns 0x00000000 (0000ms, 1031ms total)
T0528 001:957 JLINK_ReadReg(FPS4)  returns 0x00000000 (0000ms, 1031ms total)
T0528 001:957 JLINK_ReadReg(FPS5)  returns 0x00000000 (0000ms, 1031ms total)
T0528 001:958 JLINK_ReadReg(FPS6)  returns 0x00000000 (0000ms, 1032ms total)
T0528 001:958 JLINK_ReadReg(FPS7)  returns 0x00000000 (0000ms, 1032ms total)
T0528 001:958 JLINK_ReadReg(FPS8)  returns 0x00000000 (0000ms, 1032ms total)
T0528 001:958 JLINK_ReadReg(FPS9)  returns 0x00000000 (0000ms, 1032ms total)
T0528 001:958 JLINK_ReadReg(FPS10)  returns 0x00000000 (0000ms, 1032ms total)
T0528 001:958 JLINK_ReadReg(FPS11)  returns 0x00000000 (0000ms, 1032ms total)
T0528 001:958 JLINK_ReadReg(FPS12)  returns 0x00000000 (0000ms, 1032ms total)
T0528 001:958 JLINK_ReadReg(FPS13)  returns 0x00000000 (0000ms, 1032ms total)
T0528 001:958 JLINK_ReadReg(FPS14)  returns 0x00000000 (0000ms, 1032ms total)
T0528 001:958 JLINK_ReadReg(FPS15)  returns 0x00000000 (0000ms, 1032ms total)
T0528 001:958 JLINK_ReadReg(FPS16)  returns 0x00000000 (0000ms, 1032ms total)
T0528 001:958 JLINK_ReadReg(FPS17)  returns 0x00000000 (0000ms, 1032ms total)
T0528 001:958 JLINK_ReadReg(FPS18)  returns 0x00000000 (0001ms, 1033ms total)
T0528 001:959 JLINK_ReadReg(FPS19)  returns 0x00000000 (0000ms, 1033ms total)
T0528 001:959 JLINK_ReadReg(FPS20)  returns 0x00000000 (0000ms, 1033ms total)
T0528 001:959 JLINK_ReadReg(FPS21)  returns 0x00000000 (0000ms, 1033ms total)
T0528 001:959 JLINK_ReadReg(FPS22)  returns 0x00000000 (0000ms, 1033ms total)
T0528 001:959 JLINK_ReadReg(FPS23)  returns 0x00000000 (0000ms, 1033ms total)
T0528 001:959 JLINK_ReadReg(FPS24)  returns 0x00000000 (0000ms, 1033ms total)
T0528 001:959 JLINK_ReadReg(FPS25)  returns 0x00000000 (0000ms, 1033ms total)
T0528 001:959 JLINK_ReadReg(FPS26)  returns 0x00000000 (0000ms, 1033ms total)
T0528 001:959 JLINK_ReadReg(FPS27)  returns 0x00000000 (0000ms, 1033ms total)
T0528 001:959 JLINK_ReadReg(FPS28)  returns 0x00000000 (0000ms, 1033ms total)
T0528 001:959 JLINK_ReadReg(FPS29)  returns 0x00000000 (0000ms, 1033ms total)
T0528 001:959 JLINK_ReadReg(FPS30)  returns 0x00000000 (0000ms, 1033ms total)
T0528 001:959 JLINK_ReadReg(FPS31)  returns 0x00000000 (0000ms, 1033ms total)
T0528 001:959 JLINK_WriteMem(0xE000ED08, 0x0004 Bytes, ...) - Data: 00 10 00 10 -- CPU_WriteMem(4 bytes @ 0xE000ED08)  returns 0x04 (0002ms, 1035ms total)
T0528 001:961 JLINK_WriteMem(0x40043100, 0x0004 Bytes, ...) - Data: 00 10 00 10 -- CPU_WriteMem(4 bytes @ 0x40043100)  returns 0x04 (0002ms, 1037ms total)
T4BE8 001:985 JLINK_SetBPEx(Addr = 0x10001D8C, Type = 0xFFFFFFF2)  returns 0x00000001 (0001ms, 1038ms total)
T4BE8 001:986 JLINK_Go() -- CPU_WriteMem(4 bytes @ 0xE0002000) -- CPU_ReadMem(4 bytes @ 0xE0001000) -- CPU_WriteMem(4 bytes @ 0xE0002008) -- CPU_WriteMem(4 bytes @ 0xE000200C) -- CPU_WriteMem(4 bytes @ 0xE0002010) -- CPU_WriteMem(4 bytes @ 0xE0002014) -- CPU_WriteMem(4 bytes @ 0xE0002018) -- CPU_WriteMem(4 bytes @ 0xE000201C) -- CPU_WriteMem(4 bytes @ 0xE0001004) (0009ms, 1047ms total)
T4BE8 002:095 JLINK_IsHalted()  returns TRUE (0003ms, 1050ms total)
T4BE8 002:098 JLINK_Halt()  returns 0x00 (0000ms, 1047ms total)
T4BE8 002:098 JLINK_IsHalted()  returns TRUE (0000ms, 1047ms total)
T4BE8 002:098 JLINK_IsHalted()  returns TRUE (0000ms, 1047ms total)
T4BE8 002:098 JLINK_IsHalted()  returns TRUE (0000ms, 1047ms total)
T4BE8 002:098 JLINK_ReadReg(R15 (PC))  returns 0x10001D8C (0000ms, 1047ms total)
T4BE8 002:098 JLINK_ReadReg(XPSR)  returns 0x21000000 (0000ms, 1047ms total)
T4BE8 002:098 JLINK_ClrBPEx(BPHandle = 0x00000001)  returns 0x00 (0000ms, 1047ms total)
T4BE8 002:098 JLINK_ReadMemU32(0xE000ED30, 0x0001 Items, ...) -- CPU_ReadMem(4 bytes @ 0xE000ED30) - Data: 03 00 00 00  returns 0x01 (0001ms, 1048ms total)
T4BE8 002:099 JLINK_ReadMemU32(0xE0001028, 0x0001 Items, ...) -- CPU_ReadMem(4 bytes @ 0xE0001028) - Data: 00 00 00 01  returns 0x01 (0001ms, 1049ms total)
T4BE8 002:100 JLINK_ReadMemU32(0xE0001038, 0x0001 Items, ...) -- CPU_ReadMem(4 bytes @ 0xE0001038) - Data: 00 02 00 00  returns 0x01 (0001ms, 1050ms total)
T4BE8 002:101 JLINK_ReadMemU32(0xE0001048, 0x0001 Items, ...) -- CPU_ReadMem(4 bytes @ 0xE0001048) - Data: 00 00 00 00  returns 0x01 (0001ms, 1051ms total)
T4BE8 002:102 JLINK_ReadMemU32(0xE0001058, 0x0001 Items, ...) -- CPU_ReadMem(4 bytes @ 0xE0001058) - Data: 00 00 00 00  returns 0x01 (0001ms, 1052ms total)
T4BE8 002:103 JLINK_ReadReg(R0)  returns 0x200010C8 (0000ms, 1052ms total)
T4BE8 002:103 JLINK_ReadReg(R1)  returns 0x200014C8 (0000ms, 1052ms total)
T4BE8 002:103 JLINK_ReadReg(R2)  returns 0x200014C8 (0000ms, 1052ms total)
T4BE8 002:103 JLINK_ReadReg(R3)  returns 0x200014C8 (0000ms, 1052ms total)
T4BE8 002:103 JLINK_ReadReg(R4)  returns 0x00000000 (0000ms, 1052ms total)
T4BE8 002:103 JLINK_ReadReg(R5)  returns 0x20001064 (0000ms, 1052ms total)
T4BE8 002:103 JLINK_ReadReg(R6)  returns 0x00000000 (0000ms, 1052ms total)
T4BE8 002:103 JLINK_ReadReg(R7)  returns 0x00000000 (0000ms, 1052ms total)
T4BE8 002:103 JLINK_ReadReg(R8)  returns 0x00000000 (0000ms, 1052ms total)
T4BE8 002:103 JLINK_ReadReg(R9)  returns 0x00000000 (0000ms, 1052ms total)
T4BE8 002:103 JLINK_ReadReg(R10)  returns 0x10002030 (0000ms, 1052ms total)
T4BE8 002:103 JLINK_ReadReg(R11)  returns 0x00000000 (0000ms, 1052ms total)
T4BE8 002:103 JLINK_ReadReg(R12)  returns 0x200010A4 (0000ms, 1052ms total)
T4BE8 002:103 JLINK_ReadReg(R13 (SP))  returns 0x20001CC8 (0000ms, 1052ms total)
T4BE8 002:103 JLINK_ReadReg(R14)  returns 0x1000138F (0000ms, 1052ms total)
T4BE8 002:103 JLINK_ReadReg(R15 (PC))  returns 0x10001D8C (0000ms, 1052ms total)
T4BE8 002:103 JLINK_ReadReg(XPSR)  returns 0x21000000 (0000ms, 1052ms total)
T4BE8 002:103 JLINK_ReadReg(MSP)  returns 0x20001CC8 (0000ms, 1052ms total)
T4BE8 002:103 JLINK_ReadReg(PSP)  returns 0x00000000 (0000ms, 1052ms total)
T4BE8 002:103 JLINK_ReadReg(CFBP)  returns 0x04000000 (0000ms, 1052ms total)
T4BE8 002:103 JLINK_ReadReg(FPSCR)  returns 0x03000000 (0005ms, 1057ms total)
T4BE8 002:108 JLINK_ReadReg(FPS0)  returns 0x00000000 (0000ms, 1057ms total)
T4BE8 002:108 JLINK_ReadReg(FPS1)  returns 0x00000000 (0000ms, 1057ms total)
T4BE8 002:108 JLINK_ReadReg(FPS2)  returns 0x00000000 (0000ms, 1057ms total)
T4BE8 002:108 JLINK_ReadReg(FPS3)  returns 0x00000000 (0000ms, 1057ms total)
T4BE8 002:108 JLINK_ReadReg(FPS4)  returns 0x00000000 (0000ms, 1057ms total)
T4BE8 002:108 JLINK_ReadReg(FPS5)  returns 0x00000000 (0000ms, 1057ms total)
T4BE8 002:108 JLINK_ReadReg(FPS6)  returns 0x00000000 (0000ms, 1057ms total)
T4BE8 002:108 JLINK_ReadReg(FPS7)  returns 0x00000000 (0000ms, 1057ms total)
T4BE8 002:108 JLINK_ReadReg(FPS8)  returns 0x00000000 (0000ms, 1057ms total)
T4BE8 002:108 JLINK_ReadReg(FPS9)  returns 0x00000000 (0000ms, 1057ms total)
T4BE8 002:108 JLINK_ReadReg(FPS10)  returns 0x00000000 (0000ms, 1057ms total)
T4BE8 002:108 JLINK_ReadReg(FPS11)  returns 0x00000000 (0000ms, 1057ms total)
T4BE8 002:108 JLINK_ReadReg(FPS12)  returns 0x00000000 (0000ms, 1057ms total)
T4BE8 002:108 JLINK_ReadReg(FPS13)  returns 0x00000000 (0000ms, 1057ms total)
T4BE8 002:108 JLINK_ReadReg(FPS14)  returns 0x00000000 (0000ms, 1057ms total)
T4BE8 002:108 JLINK_ReadReg(FPS15)  returns 0x00000000 (0000ms, 1057ms total)
T4BE8 002:108 JLINK_ReadReg(FPS16)  returns 0x00000000 (0000ms, 1057ms total)
T4BE8 002:108 JLINK_ReadReg(FPS17)  returns 0x00000000 (0000ms, 1057ms total)
T4BE8 002:108 JLINK_ReadReg(FPS18)  returns 0x00000000 (0000ms, 1057ms total)
T4BE8 002:108 JLINK_ReadReg(FPS19)  returns 0x00000000 (0000ms, 1057ms total)
T4BE8 002:108 JLINK_ReadReg(FPS20)  returns 0x00000000 (0000ms, 1057ms total)
T4BE8 002:108 JLINK_ReadReg(FPS21)  returns 0x00000000 (0000ms, 1057ms total)
T4BE8 002:108 JLINK_ReadReg(FPS22)  returns 0x00000000 (0000ms, 1057ms total)
T4BE8 002:108 JLINK_ReadReg(FPS23)  returns 0x00000000 (0000ms, 1057ms total)
T4BE8 002:108 JLINK_ReadReg(FPS24)  returns 0x00000000 (0000ms, 1057ms total)
T4BE8 002:108 JLINK_ReadReg(FPS25)  returns 0x00000000 (0000ms, 1057ms total)
T4BE8 002:108 JLINK_ReadReg(FPS26)  returns 0x00000000 (0000ms, 1057ms total)
T4BE8 002:108 JLINK_ReadReg(FPS27)  returns 0x00000000 (0000ms, 1057ms total)
T4BE8 002:108 JLINK_ReadReg(FPS28)  returns 0x00000000 (0000ms, 1057ms total)
T4BE8 002:108 JLINK_ReadReg(FPS29)  returns 0x00000000 (0000ms, 1057ms total)
T4BE8 002:108 JLINK_ReadReg(FPS30)  returns 0x00000000 (0000ms, 1057ms total)
T4BE8 002:108 JLINK_ReadReg(FPS31)  returns 0x00000000 (0000ms, 1057ms total)
T0528 002:139 JLINK_ReadMem (0x10080400, 0x0100 Bytes, ...) -- CPU_ReadMem(256 bytes @ 0x10080400) - Data: 00 00 00 00 00 00 00 00 00 00 00 00 00 00 00 00 ...  returns 0x00 (0003ms, 1060ms total)
T4BE8 002:150 JLINK_Step() -- CPU_ReadMem(64 bytes @ 0x10001D80) -- Updating C cache (64 bytes @ 0x10001D80) -- Read from C cache (2 bytes @ 0x10001D8C) -- CPU_ReadMem(4 bytes @ 0xE000ED18) -- CPU_WriteMem(4 bytes @ 0xE000ED18) -- CPU_ReadMem(4 bytes @ 0xE000ED18) -- CPU_WriteMem(4 bytes @ 0xE000ED18) -- CPU_ReadMem(4 bytes @ 0xE0001004) -- Read from C cache (4 bytes @ 0x10001DB8) -- Simulated  returns 0x00 (0006ms, 1066ms total)
T4BE8 002:156 JLINK_ReadReg(R15 (PC))  returns 0x10001D8E (0000ms, 1066ms total)
T4BE8 002:156 JLINK_ReadReg(XPSR)  returns 0x21000000 (0000ms, 1066ms total)
T4BE8 002:156 JLINK_SetBPEx(Addr = 0x10001D8C, Type = 0xFFFFFFF2)  returns 0x00000002 (0000ms, 1066ms total)
T4BE8 002:156 JLINK_SetBPEx(Addr = 0x10001DA2, Type = 0xFFFFFFF2)  returns 0x00000003 (0000ms, 1066ms total)
T4BE8 002:156 JLINK_SetBPEx(Addr = 0x100018C6, Type = 0xFFFFFFF2)  returns 0x00000004 (0000ms, 1066ms total)
T4BE8 002:156 JLINK_Go() -- CPU_WriteMem(4 bytes @ 0xE0002000) -- CPU_WriteMem(4 bytes @ 0xE0002000) -- CPU_WriteMem(4 bytes @ 0xE0002000) -- CPU_ReadMem(4 bytes @ 0xE0001000) -- CPU_WriteMem(4 bytes @ 0xE000200C) -- CPU_WriteMem(4 bytes @ 0xE0002010) -- CPU_WriteMem(4 bytes @ 0xE0001004) (0008ms, 1074ms total)
